
T141C 000:594 SEGGER J-Link V4.90 Log File (0001ms, 0270ms total)
T141C 000:594 DLL Compiled: Jul 28 2014 10:35:20 (0001ms, 0270ms total)
T141C 000:594 Logging started @ 2016-05-09 22:05 (0001ms, 0270ms total)
T141C 000:596 JLINK_SetWarnOutHandler(...) (0000ms, 0270ms total)
T141C 000:596 JLINK_OpenEx(...)
Firmware: J-Link ARM-OB STM32 compiled Aug 22 2012 19:52:04
Hardware: V7.00
S/N: 20090928
Feature(s): RDI,FlashDL,FlashBP,JFlash,GDBFull  returns O.K. (0271ms, 0541ms total)
T141C 000:867 JLINK_SetErrorOutHandler(...) (0000ms, 0541ms total)
T141C 000:867 JLINK_ExecCommand("ProjectFile = "F:\bkp_yoga_May8\Project\Challenge\Codes\Test_Base_Board_abranging\Project-a\JLinkSettings.ini"", ...)  returns 0x00 (0003ms, 0544ms total)
T141C 000:870 JLINK_ExecCommand("Device = STM32F407ZG", ...)Device "STM32F407ZG" selected (1024 KB flash, 128 KB RAM).  returns 0x00 (0007ms, 0551ms total)
T141C 000:877 JLINK_ExecCommand("DisableConnectionTimeout", ...)  returns 0x01 (0000ms, 0551ms total)
T141C 000:878 JLINK_GetHardwareVersion()  returns 0x11170 (0000ms, 0552ms total)
T141C 000:878 JLINK_GetDLLVersion()  returns 49000 (0000ms, 0552ms total)
T141C 000:878 JLINK_GetFirmwareString(...) (0000ms, 0552ms total)
T141C 000:888 JLINK_GetDLLVersion()  returns 49000 (0000ms, 0552ms total)
T141C 000:888 JLINK_GetCompileDateTime() (0000ms, 0552ms total)
T141C 000:888 JLINK_GetFirmwareString(...) (0001ms, 0553ms total)
T141C 000:889 JLINK_GetHardwareVersion()  returns 0x11170 (0000ms, 0553ms total)
T141C 000:893 JLINK_TIF_Select(JLINKARM_TIF_SWD)  returns 0x00 (0001ms, 0554ms total)
T141C 000:894 JLINK_SetSpeed(20000) (0000ms, 0554ms total)
T141C 000:894 JLINK_GetId() >0x108 TIF>Found SWD-DP with ID 0x2BA01477 >0x0D TIF> >0x28 TIF> >0x0D TIF> >0x28 TIF> >0x0D TIF> >0x21 TIF> >0x0D TIF> >0x28 TIF> >0x0D TIF> >0x28 TIF> >0x0D TIF> >0x28 TIF> >0x0D TIF> >0x21 TIF> >0x0D TIF> >0x21 TIF> >0x0D TIF> >0x28 TIF> >0x0D TIF> >0x21 TIF> >0x0D TIF> >0x21 TIF> >0x0D TIF> >0x28 TIF> >0x0D TIF> >0x21 TIF> >0x0D TIF> >0x21 TIF> >0x108 TIF>Found SWD-DP with ID 0x2BA01477 >0x0D TIF> >0x21 TIF> >0x0D TIF> >0x28 TIF> >0x0D TIF> >0x28 TIF> >0x0D TIF> >0x21 TIF>
 >0x0D TIF> >0x28 TIF> >0x0D TIF> >0x21 TIF> >0x0D TIF> >0x21 TIF> >0x0D TIF> >0x21 TIF> >0x0D TIF> >0x21 TIF> >0x0D TIF> >0x28 TIF> >0x0D TIF> >0x28 TIF> >0x0D TIF> >0x21 TIF> >0x0D TIF> >0x28 TIF> >0x0D TIF> >0x28 TIF> >0x0D TIF> >0x28 TIF> >0x0D TIF> >0x21 TIF> >0x0D TIF> >0x21 TIF> >0x0D TIF> >0x28 TIF> >0x0D TIF> >0x21 TIF> >0x0D TIF> >0x21 TIF>Found Cortex-M4 r0p1, Little endian. -- CPU_WriteMem(4 bytes @ 0xE0002000) -- CPU_ReadMem(4 bytes @ 0xE000EDF0) -- CPU_ReadMem(4 bytes @ 0xE0002000)
FPUnit: 6 code (BP) slots and 2 literal slots -- CPU_ReadMem(4 bytes @ 0xE000EDFC) -- CPU_ReadMem(4 bytes @ 0xE0001000) -- CPU_WriteMem(4 bytes @ 0xE0001000) -- CPU_ReadMem(4 bytes @ 0xE00FF010)TPIU fitted. -- CPU_ReadMem(4 bytes @ 0xE00FF014)ETM fitted. -- CPU_ReadMem(4 bytes @ 0xE00FF018) >0x0D TIF> >0x21 TIF>  returns 0x2BA01477 (0066ms, 0620ms total)
T141C 000:960 JLINK_GetDLLVersion()  returns 49000 (0000ms, 0620ms total)
T141C 000:960 JLINK_CORE_GetFound()  returns 0xE0000FF (0000ms, 0620ms total)
T141C 000:961 JLINK_ReadMem (0xE00FF000, 0x0020 Bytes, ...) -- CPU is running -- CPU_ReadMem(32 bytes @ 0xE00FF000) - Data: 03 F0 F0 FF 03 20 F0 FF 03 30 F0 FF 03 10 F0 FF ...  returns 0x00 (0002ms, 0622ms total)
T141C 000:963 JLINK_ReadMem (0xE000EFF0, 0x0010 Bytes, ...) -- CPU is running -- CPU_ReadMem(16 bytes @ 0xE000EFF0) - Data: 0D 00 00 00 E0 00 00 00 05 00 00 00 B1 00 00 00  returns 0x00 (0001ms, 0623ms total)
T141C 000:964 JLINK_ReadMem (0xE000EFD0, 0x0020 Bytes, ...) -- CPU is running -- CPU_ReadMem(32 bytes @ 0xE000EFD0) - Data: 04 00 00 00 00 00 00 00 00 00 00 00 00 00 00 00 ...  returns 0x00 (0001ms, 0624ms total)
T141C 000:965 JLINK_ReadMem (0xE0001FF0, 0x0010 Bytes, ...) -- CPU is running -- CPU_ReadMem(16 bytes @ 0xE0001FF0) - Data: 0D 00 00 00 E0 00 00 00 05 00 00 00 B1 00 00 00  returns 0x00 (0001ms, 0625ms total)
T141C 000:966 JLINK_ReadMem (0xE0001FD0, 0x0020 Bytes, ...) -- CPU is running -- CPU_ReadMem(32 bytes @ 0xE0001FD0) - Data: 04 00 00 00 00 00 00 00 00 00 00 00 00 00 00 00 ...  returns 0x00 (0002ms, 0627ms total)
T141C 000:968 JLINK_ReadMem (0xE0002FF0, 0x0010 Bytes, ...) -- CPU is running -- CPU_ReadMem(16 bytes @ 0xE0002FF0) - Data: 0D 00 00 00 E0 00 00 00 05 00 00 00 B1 00 00 00  returns 0x00 (0001ms, 0628ms total)
T141C 000:969 JLINK_ReadMem (0xE0002FD0, 0x0020 Bytes, ...) -- CPU is running -- CPU_ReadMem(32 bytes @ 0xE0002FD0) - Data: 04 00 00 00 00 00 00 00 00 00 00 00 00 00 00 00 ...  returns 0x00 (0001ms, 0629ms total)
T141C 000:970 JLINK_ReadMem (0xE0000FF0, 0x0010 Bytes, ...) -- CPU is running -- CPU_ReadMem(16 bytes @ 0xE0000FF0) - Data: 0D 00 00 00 E0 00 00 00 05 00 00 00 B1 00 00 00  returns 0x00 (0001ms, 0630ms total)
T141C 000:971 JLINK_ReadMem (0xE0000FD0, 0x0020 Bytes, ...) -- CPU is running -- CPU_ReadMem(32 bytes @ 0xE0000FD0) - Data: 04 00 00 00 00 00 00 00 00 00 00 00 00 00 00 00 ...  returns 0x00 (0001ms, 0631ms total)
T141C 000:972 JLINK_ReadMem (0xE0040FF0, 0x0010 Bytes, ...) -- CPU is running -- CPU_ReadMem(16 bytes @ 0xE0040FF0) - Data: 0D 00 00 00 90 00 00 00 05 00 00 00 B1 00 00 00  returns 0x00 (0001ms, 0632ms total)
T141C 000:973 JLINK_ReadMem (0xE0040FD0, 0x0020 Bytes, ...) -- CPU is running -- CPU_ReadMem(32 bytes @ 0xE0040FD0) - Data: 04 00 00 00 00 00 00 00 00 00 00 00 00 00 00 00 ...  returns 0x00 (0002ms, 0634ms total)
T141C 000:975 JLINK_ReadMem (0xE0041FF0, 0x0010 Bytes, ...) -- CPU is running -- CPU_ReadMem(16 bytes @ 0xE0041FF0) - Data: 0D 00 00 00 90 00 00 00 05 00 00 00 B1 00 00 00  returns 0x00 (0001ms, 0635ms total)
T141C 000:976 JLINK_ReadMem (0xE0041FD0, 0x0020 Bytes, ...) -- CPU is running -- CPU_ReadMem(32 bytes @ 0xE0041FD0) - Data: 04 00 00 00 00 00 00 00 00 00 00 00 00 00 00 00 ...  returns 0x00 (0001ms, 0636ms total)
T141C 000:977 JLINK_ReadMemU32(0xE000EF40, 0x0001 Items, ...) -- CPU is running -- CPU_ReadMem(4 bytes @ 0xE000EF40) - Data: 21 00 11 10  returns 0x01 (0001ms, 0637ms total)
T141C 000:978 JLINK_ReadMemU32(0xE000EF44, 0x0001 Items, ...) -- CPU is running -- CPU_ReadMem(4 bytes @ 0xE000EF44) - Data: 11 00 00 11  returns 0x01 (0001ms, 0638ms total)
T141C 000:979 JLINK_ReadMemU32(0xE000ED00, 0x0001 Items, ...) -- CPU is running -- CPU_ReadMem(4 bytes @ 0xE000ED00) - Data: 41 C2 0F 41  returns 0x01 (0001ms, 0639ms total)
T141C 000:980 JLINK_SetResetType(JLINKARM_RESET_TYPE_NORMAL)  returns JLINKARM_RESET_TYPE_NORMAL (0000ms, 0639ms total)
T141C 000:980 JLINK_Reset() -- CPU is running -- CPU_WriteMem(4 bytes @ 0xE000EDF0) -- CPU is running -- CPU_WriteMem(4 bytes @ 0xE000EDFC) >0x35 TIF> -- CPU is running -- CPU_WriteMem(4 bytes @ 0xE000ED0C) -- CPU is running -- CPU_ReadMem(4 bytes @ 0xE000EDF0) -- CPU is running -- CPU_ReadMem(4 bytes @ 0xE000EDF0) -- CPU is running -- CPU_WriteMem(4 bytes @ 0xE000EDF0) -- CPU is running -- CPU_WriteMem(4 bytes @ 0xE000EDFC) -- CPU is running -- CPU_ReadMem(4 bytes @ 0xE000EDF0)
 -- CPU_WriteMem(4 bytes @ 0xE0002000) -- CPU_ReadMem(4 bytes @ 0xE000EDFC) -- CPU_ReadMem(4 bytes @ 0xE0001000) (0024ms, 0663ms total)
T141C 001:004 JLINK_ReadReg(R15 (PC))  returns 0x08000228 (0001ms, 0664ms total)
T141C 001:005 JLINK_ReadReg(XPSR)  returns 0x01000000 (0000ms, 0664ms total)
T141C 001:005 JLINK_Halt()  returns 0x00 (0000ms, 0664ms total)
T141C 001:005 JLINK_IsHalted()  returns TRUE (0000ms, 0664ms total)
T141C 001:005 JLINK_ReadMemU32(0xE000EDF0, 0x0001 Items, ...) -- CPU_ReadMem(4 bytes @ 0xE000EDF0) - Data: 03 00 03 00  returns 0x01 (0001ms, 0665ms total)
T141C 001:006 JLINK_WriteU32(0xE000EDF0, 0xA05F0003) -- CPU_WriteMem(4 bytes @ 0xE000EDF0)  returns 0x00 (0001ms, 0666ms total)
T141C 001:007 JLINK_WriteU32(0xE000EDFC, 0x01000000) -- CPU_WriteMem(4 bytes @ 0xE000EDFC)  returns 0x00 (0001ms, 0667ms total)
T141C 001:010 JLINK_GetHWStatus(...)  returns 0x00 (0000ms, 0667ms total)
T141C 001:011 JLINK_GetNumBPUnits(Type = 0xFFFFFF00)  returns 0x06 (0000ms, 0667ms total)
T141C 001:012 JLINK_GetNumBPUnits(Type = 0xF0)  returns 0x2000 (0000ms, 0668ms total)
T141C 001:012 JLINK_GetNumWPUnits()  returns 0x04 (0000ms, 0668ms total)
T141C 001:013 JLINK_GetSpeed()  returns 0xFA0 (0000ms, 0668ms total)
T141C 001:014 JLINK_ReadMemU32(0xE000E004, 0x0001 Items, ...) -- CPU_ReadMem(4 bytes @ 0xE000E004) - Data: 02 00 00 00  returns 0x01 (0001ms, 0669ms total)
T141C 001:015 JLINK_ReadMemU32(0xE000E004, 0x0001 Items, ...) -- CPU_ReadMem(4 bytes @ 0xE000E004) - Data: 02 00 00 00  returns 0x01 (0001ms, 0670ms total)
T141C 001:016 JLINK_WriteMem(0xE0001000, 0x001C Bytes, ...) - Data: 01 00 00 00 00 00 00 00 00 00 00 00 00 00 00 00 ... -- CPU_WriteMem(28 bytes @ 0xE0001000)  returns 0x1C (0001ms, 0671ms total)
T141C 001:017 JLINK_ReadMem (0xE0001000, 0x001C Bytes, ...) -- CPU_ReadMem(28 bytes @ 0xE0001000) - Data: 01 00 00 40 00 00 00 00 00 00 00 00 00 00 00 00 ...  returns 0x00 (0001ms, 0672ms total)
T141C 001:018 JLINK_ReadReg(R15 (PC))  returns 0x08000228 (0000ms, 0672ms total)
T141C 001:018 JLINK_ReadReg(XPSR)  returns 0x01000000 (0000ms, 0672ms total)
T141C 001:019 JLINK_WriteU32(0xE0041FB0, 0xC5ACCE55) -- CPU_WriteMem(4 bytes @ 0xE0041FB0)  returns 0x00 (0001ms, 0673ms total)
T141C 001:020 JLINK_ReadMemU32(0xE0041000, 0x0001 Items, ...) -- CPU_ReadMem(4 bytes @ 0xE0041000) - Data: 11 04 00 00  returns 0x01 (0000ms, 0673ms total)
T141C 001:021 JLINK_WriteU32(0xE0041000, 0x00000410) -- CPU_WriteMem(4 bytes @ 0xE0041000)  returns 0x00 (0000ms, 0673ms total)
T141C 001:061 JLINK_SWO_Control(JLINKARM_SWO_CMD_GET_SPEED_INFO, ...)  returns 0x00 (0002ms, 0675ms total)
T141C 001:063 JLINK_SWO_Control(JLINKARM_SWO_CMD_STOP, ...)  returns 0x00 (0000ms, 0675ms total)
T141C 001:063 JLINK_SWO_Control(JLINKARM_SWO_CMD_START, ...) -- UART -- 4421052bps -- CPU_ReadMem(4 bytes @ 0xE0042004) -- CPU_WriteMem(4 bytes @ 0xE0042004)  returns 0x00 (0004ms, 0679ms total)
T141C 001:067 JLINK_WriteU32(0xE0040004, 0x00000001) -- CPU_WriteMem(4 bytes @ 0xE0040004)  returns 0x00 (0001ms, 0680ms total)
T141C 001:069 JLINK_WriteU32(0xE0040010, 0x00000012) -- CPU_WriteMem(4 bytes @ 0xE0040010)  returns 0x00 (0001ms, 0681ms total)
T141C 001:071 JLINK_WriteU32(0xE00400F0, 0x00000002) -- CPU_WriteMem(4 bytes @ 0xE00400F0)  returns 0x00 (0001ms, 0682ms total)
T141C 001:072 JLINK_WriteU32(0xE0040304, 0x00000000) -- CPU_WriteMem(4 bytes @ 0xE0040304)  returns 0x00 (0001ms, 0683ms total)
T141C 001:073 JLINK_WriteU32(0xE0000FB0, 0xC5ACCE55) -- CPU_WriteMem(4 bytes @ 0xE0000FB0)  returns 0x00 (0001ms, 0684ms total)
T141C 001:074 JLINK_WriteU32(0xE0000E80, 0x0001000D) -- CPU_WriteMem(4 bytes @ 0xE0000E80)  returns 0x00 (0001ms, 0685ms total)
T141C 001:076 JLINK_WriteU32(0xE0000E00, 0xFFFFFFFF) -- CPU_WriteMem(4 bytes @ 0xE0000E00)  returns 0x00 (0000ms, 0685ms total)
T141C 001:076 JLINK_WriteU32(0xE0000E40, 0x00000008) -- CPU_WriteMem(4 bytes @ 0xE0000E40)  returns 0x00 (0002ms, 0687ms total)
T141C 001:078 JLINK_WriteU32(0xE0001000, 0x00010A1F) -- CPU_WriteMem(4 bytes @ 0xE0001000)  returns 0x00 (0002ms, 0689ms total)
T141C 001:231 JLINK_ReadMem (0x08000000, 0x1000 Bytes, ...) -- CPU_ReadMem(4096 bytes @ 0x08000000) -- Updating C cache (4096 bytes @ 0x08000000) -- Read from C cache (4096 bytes @ 0x08000000) - Data: A0 07 00 20 29 02 00 08 BD 1A 00 08 BF 1A 00 08 ...  returns 0x00 (0040ms, 0729ms total)
T141C 001:273 JLINK_ReadMem (0x08001000, 0x1000 Bytes, ...) -- CPU_ReadMem(4096 bytes @ 0x08001000) -- Updating C cache (4096 bytes @ 0x08001000) -- Read from C cache (4096 bytes @ 0x08001000) - Data: 77 49 89 1D 08 80 30 BD 30 B5 02 46 0C 46 09 25 ...  returns 0x00 (0040ms, 0769ms total)
T141C 001:316 JLINK_ReadMem (0x08002000, 0x1000 Bytes, ...) -- CPU_ReadMem(4096 bytes @ 0x08002000) -- Updating C cache (4096 bytes @ 0x08002000) -- Read from C cache (4096 bytes @ 0x08002000) - Data: 01 00 40 F0 80 00 8D F8 01 00 24 E0 9D F8 00 00 ...  returns 0x00 (0040ms, 0809ms total)
T141C 001:358 JLINK_ReadMem (0x08003000, 0x1000 Bytes, ...) -- CPU_ReadMem(4096 bytes @ 0x08003000) -- Updating C cache (4096 bytes @ 0x08003000) -- Read from C cache (4096 bytes @ 0x08003000) - Data: 03 21 3C 48 80 F8 24 10 80 6B 18 B1 39 48 81 6B ...  returns 0x00 (0041ms, 0850ms total)
T141C 001:401 JLINK_ReadMem (0x08004000, 0x0FD0 Bytes, ...) -- CPU_ReadMem(4096 bytes @ 0x08004000) -- Updating C cache (4096 bytes @ 0x08004000) -- Read from C cache (4048 bytes @ 0x08004000) - Data: 0F E0 04 F1 0C 00 8B 49 08 5C E1 00 88 40 C1 17 ...  returns 0x00 (0040ms, 0890ms total)
T141C 001:504 JLINK_SetResetType(JLINKARM_RESET_TYPE_NORMAL)  returns JLINKARM_RESET_TYPE_NORMAL (0000ms, 0890ms total)
T141C 001:504 JLINK_Reset() -- CPU_WriteMem(4 bytes @ 0xE000EDF0) -- CPU_WriteMem(4 bytes @ 0xE000EDFC) >0x35 TIF> -- CPU_WriteMem(4 bytes @ 0xE000ED0C) -- CPU_ReadMem(4 bytes @ 0xE000EDF0) -- CPU_ReadMem(4 bytes @ 0xE000EDF0) -- CPU_WriteMem(4 bytes @ 0xE000EDF0) -- CPU_WriteMem(4 bytes @ 0xE000EDFC) -- CPU is running -- CPU_ReadMem(4 bytes @ 0xE000EDF0) -- CPU_WriteMem(4 bytes @ 0xE0002000) -- CPU_ReadMem(4 bytes @ 0xE000EDFC) -- CPU_ReadMem(4 bytes @ 0xE0001000) (0024ms, 0914ms total)
T141C 001:528 JLINK_WriteU32(0xE000EDFC, 0x01000000) -- CPU_WriteMem(4 bytes @ 0xE000EDFC)  returns 0x00 (0001ms, 0915ms total)
T141C 001:530 JLINK_ReadReg(R15 (PC))  returns 0x08000228 (0000ms, 0915ms total)
T141C 001:530 JLINK_ReadReg(XPSR)  returns 0x01000000 (0000ms, 0915ms total)
T141C 001:546 JLINK_ReadMem (0x08000228, 0x003C Bytes, ...) -- CPU_ReadMem(128 bytes @ 0x08000200) -- Updating C cache (128 bytes @ 0x08000200) -- Read from C cache (60 bytes @ 0x08000228) - Data: 09 48 80 47 09 48 00 47 FE E7 FE E7 FE E7 FE E7 ...  returns 0x00 (0003ms, 0918ms total)
T141C 001:902 JLINK_WriteU32(0xE0001008, 0x00000000) -- CPU_WriteMem(4 bytes @ 0xE0001008)  returns 0x00 (0001ms, 0919ms total)
T141C 001:904 JLINK_WriteU32(0xE000100C, 0x00000000) -- CPU_WriteMem(4 bytes @ 0xE000100C)  returns 0x00 (0001ms, 0920ms total)
T141C 001:905 JLINK_WriteU32(0xE0001010, 0x00000000) -- CPU_WriteMem(4 bytes @ 0xE0001010)  returns 0x00 (0001ms, 0921ms total)
T141C 001:906 JLINK_WriteU32(0xE0001014, 0x00000000) -- CPU_WriteMem(4 bytes @ 0xE0001014)  returns 0x00 (0001ms, 0922ms total)
T141C 001:907 JLINK_WriteU32(0xE0001018, 0x00000000) -- CPU_WriteMem(4 bytes @ 0xE0001018)  returns 0x00 (0001ms, 0923ms total)
T1EE4 011:674 JLINK_SetBPEx(Addr = 0x080018F0, Type = 0xFFFFFFF2)  returns 0x00000001 (0001ms, 0924ms total)
T1EE4 011:675 JLINK_ReadMemU32(0xE0001004, 0x0001 Items, ...) -- CPU_ReadMem(4 bytes @ 0xE0001004) - Data: E6 19 00 00  returns 0x01 (0001ms, 0925ms total)
T1EE4 011:677 JLINK_WriteU32(0xE0001004, 0x000003FF) -- CPU_WriteMem(4 bytes @ 0xE0001004)  returns 0x00 (0001ms, 0926ms total)
T1EE4 011:678 JLINK_WriteU32(0xE0001000, 0x00410A1F) -- CPU_WriteMem(4 bytes @ 0xE0001000)  returns 0x00 (0001ms, 0927ms total)
T1EE4 011:680 JLINK_WriteU32(0xE0000E80, 0x0001000F) -- CPU_WriteMem(4 bytes @ 0xE0000E80)  returns 0x00 (0001ms, 0928ms total)
T1EE4 011:681 JLINK_SWO_Control(JLINKARM_SWO_CMD_GET_NUM_BYTES, ...)  returns 0x00 (0001ms, 0929ms total)
T1EE4 011:682 JLINK_Go() -- CPU_WriteMem(4 bytes @ 0xE0002000) -- CPU_WriteMem(4 bytes @ 0xE0002008) -- CPU_WriteMem(4 bytes @ 0xE000200C) -- CPU_WriteMem(4 bytes @ 0xE0002010) -- CPU_WriteMem(4 bytes @ 0xE0002014) -- CPU_WriteMem(4 bytes @ 0xE0002018) -- CPU_WriteMem(4 bytes @ 0xE000201C) -- CPU_WriteMem(4 bytes @ 0xE0001004) (0007ms, 0936ms total)
T1EE4 011:690 JLINK_WriteU32(0xE0001000, 0x00010A1F) -- CPU is running -- CPU_WriteMem(4 bytes @ 0xE0001000)  returns 0x00 (0001ms, 0938ms total)
T1EE4 011:792 JLINK_SWO_Read(..., Offset = 0x00, NumBytes = 0x400000) - Data:  NumBytesRead = 0x00 (0000ms, 0938ms total)
T1EE4 011:795 JLINK_SWO_Control(JLINKARM_SWO_CMD_FLUSH, ...)  returns 0x00 (0000ms, 0938ms total)
T1EE4 011:795 JLINK_IsHalted()  returns TRUE (0004ms, 0942ms total)
T1EE4 011:799 JLINK_Halt()  returns 0x00 (0001ms, 0939ms total)
T1EE4 011:800 JLINK_IsHalted()  returns TRUE (0000ms, 0939ms total)
T1EE4 011:800 JLINK_IsHalted()  returns TRUE (0000ms, 0939ms total)
T1EE4 011:800 JLINK_IsHalted()  returns TRUE (0000ms, 0939ms total)
T1EE4 011:800 JLINK_ReadReg(R15 (PC))  returns 0x080018F0 (0000ms, 0939ms total)
T1EE4 011:800 JLINK_ReadReg(XPSR)  returns 0x21000000 (0000ms, 0939ms total)
T1EE4 011:800 JLINK_SWO_Read(..., Offset = 0x00, NumBytes = 0x400000) - Data:  NumBytesRead = 0x00 (0000ms, 0939ms total)
T1EE4 011:802 JLINK_SWO_Control(JLINKARM_SWO_CMD_FLUSH, ...)  returns 0x00 (0000ms, 0939ms total)
T1EE4 011:802 JLINK_ClrBPEx(BPHandle = 0x00000001)  returns 0x00 (0000ms, 0939ms total)
T1EE4 011:802 JLINK_ReadMemU32(0xE000ED30, 0x0001 Items, ...) -- CPU_ReadMem(4 bytes @ 0xE000ED30) - Data: 03 00 00 00  returns 0x01 (0001ms, 0940ms total)
T1EE4 011:804 JLINK_ReadMemU32(0xE0001028, 0x0001 Items, ...) -- CPU_ReadMem(4 bytes @ 0xE0001028) - Data: 00 00 00 00  returns 0x01 (0001ms, 0941ms total)
T1EE4 011:806 JLINK_ReadMemU32(0xE0001038, 0x0001 Items, ...) -- CPU_ReadMem(4 bytes @ 0xE0001038) - Data: 00 02 00 00  returns 0x01 (0001ms, 0942ms total)
T1EE4 011:807 JLINK_ReadMemU32(0xE0001048, 0x0001 Items, ...) -- CPU_ReadMem(4 bytes @ 0xE0001048) - Data: 00 00 00 00  returns 0x01 (0000ms, 0942ms total)
T1EE4 011:808 JLINK_ReadMemU32(0xE0001058, 0x0001 Items, ...) -- CPU_ReadMem(4 bytes @ 0xE0001058) - Data: 00 00 00 00  returns 0x01 (0001ms, 0944ms total)
T1EE4 011:810 JLINK_ReadReg(R0)  returns 0x200001A0 (0000ms, 0944ms total)
T1EE4 011:810 JLINK_ReadReg(R1)  returns 0x200003A0 (0000ms, 0944ms total)
T1EE4 011:810 JLINK_ReadReg(R2)  returns 0x200003A0 (0001ms, 0945ms total)
T1EE4 011:811 JLINK_ReadReg(R3)  returns 0x200003A0 (0000ms, 0945ms total)
T1EE4 011:811 JLINK_ReadReg(R4)  returns 0x00000000 (0000ms, 0945ms total)
T1EE4 011:812 JLINK_ReadReg(R5)  returns 0x20000140 (0000ms, 0945ms total)
T1EE4 011:812 JLINK_ReadReg(R6)  returns 0x00000000 (0000ms, 0945ms total)
T1EE4 011:812 JLINK_ReadReg(R7)  returns 0x00000000 (0000ms, 0945ms total)
T1EE4 011:812 JLINK_ReadReg(R8)  returns 0x00000000 (0000ms, 0945ms total)
T1EE4 011:812 JLINK_ReadReg(R9)  returns 0x00000000 (0000ms, 0945ms total)
T1EE4 011:812 JLINK_ReadReg(R10)  returns 0x08004EFC (0000ms, 0945ms total)
T1EE4 011:812 JLINK_ReadReg(R11)  returns 0x00000000 (0000ms, 0945ms total)
T1EE4 011:812 JLINK_ReadReg(R12)  returns 0x20000180 (0001ms, 0946ms total)
T1EE4 011:813 JLINK_ReadReg(R13 (SP))  returns 0x200007A0 (0000ms, 0946ms total)
T1EE4 011:813 JLINK_ReadReg(R14)  returns 0x08000217 (0000ms, 0946ms total)
T1EE4 011:813 JLINK_ReadReg(R15 (PC))  returns 0x080018F0 (0001ms, 0947ms total)
T1EE4 011:814 JLINK_ReadReg(XPSR)  returns 0x21000000 (0000ms, 0947ms total)
T1EE4 011:814 JLINK_ReadReg(MSP)  returns 0x200007A0 (0000ms, 0947ms total)
T1EE4 011:814 JLINK_ReadReg(PSP)  returns 0x00000000 (0000ms, 0947ms total)
T1EE4 011:814 JLINK_ReadReg(CFBP)  returns 0x04000000 (0000ms, 0947ms total)
T1EE4 011:814 JLINK_ReadReg(FPSCR)  returns 0x03000000 (0005ms, 0952ms total)
T1EE4 011:820 JLINK_ReadReg(FPS0)  returns 0x00000000 (0000ms, 0952ms total)
T1EE4 011:820 JLINK_ReadReg(FPS1)  returns 0x00000000 (0000ms, 0952ms total)
T1EE4 011:820 JLINK_ReadReg(FPS2)  returns 0x00000000 (0000ms, 0952ms total)
T1EE4 011:820 JLINK_ReadReg(FPS3)  returns 0x00000000 (0000ms, 0952ms total)
T1EE4 011:820 JLINK_ReadReg(FPS4)  returns 0x00000000 (0000ms, 0952ms total)
T1EE4 011:820 JLINK_ReadReg(FPS5)  returns 0x00000000 (0000ms, 0952ms total)
T1EE4 011:820 JLINK_ReadReg(FPS6)  returns 0x00000000 (0000ms, 0952ms total)
T1EE4 011:820 JLINK_ReadReg(FPS7)  returns 0x00000000 (0001ms, 0953ms total)
T1EE4 011:821 JLINK_ReadReg(FPS8)  returns 0x00000000 (0000ms, 0953ms total)
T1EE4 011:821 JLINK_ReadReg(FPS9)  returns 0x00000000 (0000ms, 0953ms total)
T1EE4 011:821 JLINK_ReadReg(FPS10)  returns 0x00000000 (0000ms, 0953ms total)
T1EE4 011:821 JLINK_ReadReg(FPS11)  returns 0x00000000 (0000ms, 0953ms total)
T1EE4 011:821 JLINK_ReadReg(FPS12)  returns 0x00000000 (0001ms, 0954ms total)
T1EE4 011:822 JLINK_ReadReg(FPS13)  returns 0x00000000 (0000ms, 0954ms total)
T1EE4 011:822 JLINK_ReadReg(FPS14)  returns 0x00000000 (0000ms, 0954ms total)
T1EE4 011:822 JLINK_ReadReg(FPS15)  returns 0x00000000 (0000ms, 0954ms total)
T1EE4 011:822 JLINK_ReadReg(FPS16)  returns 0x00000000 (0000ms, 0954ms total)
T1EE4 011:822 JLINK_ReadReg(FPS17)  returns 0x00000000 (0000ms, 0954ms total)
T1EE4 011:823 JLINK_ReadReg(FPS18)  returns 0x00000000 (0000ms, 0955ms total)
T1EE4 011:823 JLINK_ReadReg(FPS19)  returns 0x00000000 (0000ms, 0955ms total)
T1EE4 011:823 JLINK_ReadReg(FPS20)  returns 0x00000000 (0000ms, 0955ms total)
T1EE4 011:823 JLINK_ReadReg(FPS21)  returns 0x00000000 (0000ms, 0955ms total)
T1EE4 011:823 JLINK_ReadReg(FPS22)  returns 0x00000000 (0000ms, 0955ms total)
T1EE4 011:824 JLINK_ReadReg(FPS23)  returns 0x00000000 (0000ms, 0955ms total)
T1EE4 011:824 JLINK_ReadReg(FPS24)  returns 0x00000000 (0000ms, 0955ms total)
T1EE4 011:824 JLINK_ReadReg(FPS25)  returns 0x00000000 (0000ms, 0955ms total)
T1EE4 011:824 JLINK_ReadReg(FPS26)  returns 0x00000000 (0000ms, 0955ms total)
T1EE4 011:824 JLINK_ReadReg(FPS27)  returns 0x00000000 (0000ms, 0955ms total)
T1EE4 011:824 JLINK_ReadReg(FPS28)  returns 0x00000000 (0000ms, 0955ms total)
T1EE4 011:824 JLINK_ReadReg(FPS29)  returns 0x00000000 (0001ms, 0956ms total)
T1EE4 011:825 JLINK_ReadReg(FPS30)  returns 0x00000000 (0001ms, 0957ms total)
T1EE4 011:826 JLINK_ReadReg(FPS31)  returns 0x00000000 (0000ms, 0957ms total)
T141C 011:857 JLINK_ReadMem (0x080018F0, 0x003C Bytes, ...) -- CPU_ReadMem(128 bytes @ 0x080018C0) -- Updating C cache (128 bytes @ 0x080018C0) -- Read from C cache (60 bytes @ 0x080018F0) - Data: 00 F0 CF F8 05 20 00 F0 8C F8 02 F0 9B F8 02 F0 ...  returns 0x00 (0003ms, 0960ms total)
T141C 011:958 JLINK_ReadMem (0x08001956, 0x0002 Bytes, ...) -- CPU_ReadMem(64 bytes @ 0x08001940) -- Updating C cache (64 bytes @ 0x08001940) -- Read from C cache (2 bytes @ 0x08001956) - Data: 02 20  returns 0x00 (0002ms, 0962ms total)
T141C 011:961 JLINK_ReadMem (0x08001958, 0x003C Bytes, ...) -- CPU_ReadMem(64 bytes @ 0x08001980) -- Updating C cache (64 bytes @ 0x08001980) -- Read from C cache (60 bytes @ 0x08001958) - Data: 02 F0 DE F8 FB E7 00 00 10 00 00 20 10 B5 00 28 ...  returns 0x00 (0001ms, 0963ms total)
T1EE4 020:100 JLINK_SetBPEx(Addr = 0x08001956, Type = 0xFFFFFFF2)  returns 0x00000002 (0001ms, 0964ms total)
T1EE4 020:101 JLINK_ReadMemU32(0xE0001004, 0x0001 Items, ...) -- CPU_ReadMem(4 bytes @ 0xE0001004) - Data: 4A 3E 00 00  returns 0x01 (0001ms, 0965ms total)
T1EE4 020:102 JLINK_WriteU32(0xE0001004, 0x000003FF) -- CPU_WriteMem(4 bytes @ 0xE0001004)  returns 0x00 (0001ms, 0966ms total)
T1EE4 020:104 JLINK_WriteU32(0xE0001000, 0x00410A1F)  returns 0x00 (0000ms, 0966ms total)
T1EE4 020:104 JLINK_WriteU32(0xE0000E80, 0x0001000F)  returns 0x00 (0000ms, 0966ms total)
T1EE4 020:104 JLINK_SWO_Control(JLINKARM_SWO_CMD_GET_NUM_BYTES, ...)  returns 0x00 (0000ms, 0966ms total)
T1EE4 020:104 JLINK_Go() -- CPU_WriteMem(4 bytes @ 0xE0002000) -- CPU_WriteMem(4 bytes @ 0xE0000E80) -- CPU_WriteMem(4 bytes @ 0xE0001000) -- CPU_WriteMem(4 bytes @ 0xE0002008) (0004ms, 0970ms total)
T1EE4 020:109 JLINK_WriteU32(0xE0001000, 0x00010A1F) -- CPU is running -- CPU_WriteMem(4 bytes @ 0xE0001000)  returns 0x00 (0001ms, 0971ms total)
T1EE4 020:210 JLINK_SWO_Read(..., Offset = 0x00, NumBytes = 0x400000) - Data:  NumBytesRead = 0x00 (0000ms, 0971ms total)
T1EE4 020:212 JLINK_SWO_Control(JLINKARM_SWO_CMD_FLUSH, ...)  returns 0x00 (0000ms, 0971ms total)
T1EE4 020:212 JLINK_IsHalted()  returns TRUE (0004ms, 0975ms total)
T1EE4 020:217 JLINK_Halt()  returns 0x00 (0000ms, 0971ms total)
T1EE4 020:217 JLINK_IsHalted()  returns TRUE (0000ms, 0971ms total)
T1EE4 020:217 JLINK_IsHalted()  returns TRUE (0000ms, 0971ms total)
T1EE4 020:217 JLINK_IsHalted()  returns TRUE (0000ms, 0971ms total)
T1EE4 020:217 JLINK_ReadReg(R15 (PC))  returns 0x08001956 (0000ms, 0971ms total)
T1EE4 020:217 JLINK_ReadReg(XPSR)  returns 0x61000000 (0000ms, 0971ms total)
T1EE4 020:217 JLINK_SWO_Read(..., Offset = 0x00, NumBytes = 0x400000) - Data:  NumBytesRead = 0x00 (0000ms, 0971ms total)
T1EE4 020:219 JLINK_SWO_Control(JLINKARM_SWO_CMD_FLUSH, ...)  returns 0x00 (0001ms, 0972ms total)
T1EE4 020:220 JLINK_ClrBPEx(BPHandle = 0x00000002)  returns 0x00 (0000ms, 0972ms total)
T1EE4 020:220 JLINK_ReadMemU32(0xE000ED30, 0x0001 Items, ...) -- CPU_ReadMem(4 bytes @ 0xE000ED30) - Data: 03 00 00 00  returns 0x01 (0001ms, 0973ms total)
T1EE4 020:221 JLINK_ReadMemU32(0xE0001028, 0x0001 Items, ...) -- CPU_ReadMem(4 bytes @ 0xE0001028) - Data: 00 00 00 00  returns 0x01 (0001ms, 0974ms total)
T1EE4 020:223 JLINK_ReadMemU32(0xE0001038, 0x0001 Items, ...) -- CPU_ReadMem(4 bytes @ 0xE0001038) - Data: 00 02 00 00  returns 0x01 (0000ms, 0974ms total)
T1EE4 020:224 JLINK_ReadMemU32(0xE0001048, 0x0001 Items, ...) -- CPU_ReadMem(4 bytes @ 0xE0001048) - Data: 00 00 00 00  returns 0x01 (0000ms, 0975ms total)
T1EE4 020:225 JLINK_ReadMemU32(0xE0001058, 0x0001 Items, ...) -- CPU_ReadMem(4 bytes @ 0xE0001058) - Data: 00 00 00 00  returns 0x01 (0001ms, 0976ms total)
T1EE4 020:227 JLINK_ReadReg(R0)  returns 0x00000000 (0000ms, 0976ms total)
T1EE4 020:227 JLINK_ReadReg(R1)  returns 0x00000000 (0000ms, 0976ms total)
T1EE4 020:227 JLINK_ReadReg(R2)  returns 0x00000000 (0000ms, 0976ms total)
T1EE4 020:227 JLINK_ReadReg(R3)  returns 0xF0000011 (0000ms, 0976ms total)
T1EE4 020:227 JLINK_ReadReg(R4)  returns 0x00000000 (0000ms, 0976ms total)
T1EE4 020:227 JLINK_ReadReg(R5)  returns 0x20000140 (0000ms, 0976ms total)
T1EE4 020:227 JLINK_ReadReg(R6)  returns 0x00000000 (0000ms, 0976ms total)
T1EE4 020:227 JLINK_ReadReg(R7)  returns 0x00000000 (0000ms, 0976ms total)
T1EE4 020:227 JLINK_ReadReg(R8)  returns 0x00000000 (0000ms, 0976ms total)
T1EE4 020:227 JLINK_ReadReg(R9)  returns 0x00000000 (0001ms, 0977ms total)
T1EE4 020:228 JLINK_ReadReg(R10)  returns 0x08004EFC (0000ms, 0977ms total)
T1EE4 020:228 JLINK_ReadReg(R11)  returns 0x00000000 (0000ms, 0977ms total)
T1EE4 020:228 JLINK_ReadReg(R12)  returns 0x000000A8 (0000ms, 0977ms total)
T1EE4 020:228 JLINK_ReadReg(R13 (SP))  returns 0x200007A0 (0001ms, 0978ms total)
T1EE4 020:229 JLINK_ReadReg(R14)  returns 0x08001DFD (0000ms, 0978ms total)
T1EE4 020:229 JLINK_ReadReg(R15 (PC))  returns 0x08001956 (0000ms, 0978ms total)
T1EE4 020:229 JLINK_ReadReg(XPSR)  returns 0x61000000 (0000ms, 0978ms total)
T1EE4 020:229 JLINK_ReadReg(MSP)  returns 0x200007A0 (0000ms, 0978ms total)
T1EE4 020:229 JLINK_ReadReg(PSP)  returns 0x00000000 (0001ms, 0979ms total)
T1EE4 020:230 JLINK_ReadReg(CFBP)  returns 0x04000000 (0000ms, 0979ms total)
T1EE4 020:230 JLINK_ReadReg(FPSCR)  returns 0x03000000 (0005ms, 0984ms total)
T1EE4 020:236 JLINK_ReadReg(FPS0)  returns 0x00000000 (0000ms, 0984ms total)
T1EE4 020:236 JLINK_ReadReg(FPS1)  returns 0x00000000 (0000ms, 0984ms total)
T1EE4 020:236 JLINK_ReadReg(FPS2)  returns 0x00000000 (0000ms, 0984ms total)
T1EE4 020:236 JLINK_ReadReg(FPS3)  returns 0x00000000 (0000ms, 0984ms total)
T1EE4 020:236 JLINK_ReadReg(FPS4)  returns 0x00000000 (0000ms, 0984ms total)
T1EE4 020:236 JLINK_ReadReg(FPS5)  returns 0x00000000 (0000ms, 0984ms total)
T1EE4 020:236 JLINK_ReadReg(FPS6)  returns 0x00000000 (0000ms, 0984ms total)
T1EE4 020:236 JLINK_ReadReg(FPS7)  returns 0x00000000 (0000ms, 0984ms total)
T1EE4 020:236 JLINK_ReadReg(FPS8)  returns 0x00000000 (0000ms, 0984ms total)
T1EE4 020:237 JLINK_ReadReg(FPS9)  returns 0x00000000 (0000ms, 0985ms total)
T1EE4 020:237 JLINK_ReadReg(FPS10)  returns 0x00000000 (0000ms, 0985ms total)
T1EE4 020:237 JLINK_ReadReg(FPS11)  returns 0x00000000 (0000ms, 0985ms total)
T1EE4 020:237 JLINK_ReadReg(FPS12)  returns 0x00000000 (0000ms, 0985ms total)
T1EE4 020:237 JLINK_ReadReg(FPS13)  returns 0x00000000 (0001ms, 0986ms total)
T1EE4 020:238 JLINK_ReadReg(FPS14)  returns 0x00000000 (0000ms, 0986ms total)
T1EE4 020:238 JLINK_ReadReg(FPS15)  returns 0x00000000 (0000ms, 0986ms total)
T1EE4 020:238 JLINK_ReadReg(FPS16)  returns 0x00000000 (0000ms, 0986ms total)
T1EE4 020:238 JLINK_ReadReg(FPS17)  returns 0x00000000 (0000ms, 0986ms total)
T1EE4 020:238 JLINK_ReadReg(FPS18)  returns 0x00000000 (0001ms, 0987ms total)
T1EE4 020:239 JLINK_ReadReg(FPS19)  returns 0x00000000 (0000ms, 0987ms total)
T1EE4 020:240 JLINK_ReadReg(FPS20)  returns 0x00000000 (0000ms, 0987ms total)
T1EE4 020:240 JLINK_ReadReg(FPS21)  returns 0x00000000 (0000ms, 0987ms total)
T1EE4 020:240 JLINK_ReadReg(FPS22)  returns 0x00000000 (0000ms, 0987ms total)
T1EE4 020:240 JLINK_ReadReg(FPS23)  returns 0x00000000 (0000ms, 0987ms total)
T1EE4 020:240 JLINK_ReadReg(FPS24)  returns 0x00000000 (0000ms, 0987ms total)
T1EE4 020:240 JLINK_ReadReg(FPS25)  returns 0x00000000 (0000ms, 0987ms total)
T1EE4 020:240 JLINK_ReadReg(FPS26)  returns 0x00000000 (0000ms, 0987ms total)
T1EE4 020:240 JLINK_ReadReg(FPS27)  returns 0x00000000 (0000ms, 0987ms total)
T1EE4 020:240 JLINK_ReadReg(FPS28)  returns 0x00000000 (0000ms, 0987ms total)
T1EE4 020:240 JLINK_ReadReg(FPS29)  returns 0x00000000 (0000ms, 0987ms total)
T1EE4 020:240 JLINK_ReadReg(FPS30)  returns 0x00000000 (0000ms, 0987ms total)
T1EE4 020:240 JLINK_ReadReg(FPS31)  returns 0x00000000 (0000ms, 0987ms total)
T141C 020:264 JLINK_ReadMem (0x08001956, 0x0002 Bytes, ...) -- CPU_ReadMem(64 bytes @ 0x08001940) -- Updating C cache (64 bytes @ 0x08001940) -- Read from C cache (2 bytes @ 0x08001956) - Data: 02 20  returns 0x00 (0002ms, 0990ms total)
T141C 020:267 JLINK_ReadMem (0x08001958, 0x003C Bytes, ...) -- CPU_ReadMem(64 bytes @ 0x08001980) -- Updating C cache (64 bytes @ 0x08001980) -- Read from C cache (60 bytes @ 0x08001958) - Data: 02 F0 DE F8 FB E7 00 00 10 00 00 20 10 B5 00 28 ...  returns 0x00 (0001ms, 0991ms total)
T1EE4 024:320 JLINK_ReadMemU32(0xE0001004, 0x0001 Items, ...) -- CPU_ReadMem(4 bytes @ 0xE0001004) - Data: 31 3D 0D 00  returns 0x01 (0002ms, 0993ms total)
T1EE4 024:322 JLINK_WriteU32(0xE0001004, 0x000003FF) -- CPU_WriteMem(4 bytes @ 0xE0001004)  returns 0x00 (0001ms, 0994ms total)
T1EE4 024:324 JLINK_WriteU32(0xE0001000, 0x00410A1F)  returns 0x00 (0000ms, 0994ms total)
T1EE4 024:324 JLINK_WriteU32(0xE0000E80, 0x0001000F)  returns 0x00 (0000ms, 0994ms total)
T1EE4 024:324 JLINK_SWO_Control(JLINKARM_SWO_CMD_GET_NUM_BYTES, ...)  returns 0x00 (0000ms, 0994ms total)
T1EE4 024:324 JLINK_Step() -- Read from C cache (2 bytes @ 0x08001956) -- Simulated  returns 0x00 (0001ms, 0995ms total)
T1EE4 024:325 JLINK_ReadReg(R15 (PC))  returns 0x08001958 (0001ms, 0996ms total)
T1EE4 024:326 JLINK_ReadReg(XPSR)  returns 0x21000000 (0000ms, 0996ms total)
T1EE4 024:328 JLINK_ReadMemU32(0xE0001004, 0x0001 Items, ...) - Data: FF 03 00 00  returns 0x01 (0000ms, 0996ms total)
T1EE4 024:328 JLINK_WriteU32(0xE0001004, 0x000003FF)  returns 0x00 (0001ms, 0997ms total)
T1EE4 024:329 JLINK_WriteU32(0xE0001000, 0x00410A1F)  returns 0x00 (0000ms, 0997ms total)
T1EE4 024:329 JLINK_WriteU32(0xE0000E80, 0x0001000F)  returns 0x00 (0000ms, 0997ms total)
T1EE4 024:329 JLINK_SWO_Control(JLINKARM_SWO_CMD_GET_NUM_BYTES, ...)  returns 0x00 (0000ms, 0997ms total)
T1EE4 024:329 JLINK_Step() -- Read from C cache (2 bytes @ 0x08001958) -- Read from C cache (2 bytes @ 0x0800195A) -- Simulated  returns 0x00 (0000ms, 0997ms total)
T1EE4 024:330 JLINK_ReadReg(R15 (PC))  returns 0x08003B18 (0000ms, 0997ms total)
T1EE4 024:330 JLINK_ReadReg(XPSR)  returns 0x21000000 (0000ms, 0997ms total)
T1EE4 024:330 JLINK_ReadReg(R0)  returns 0x00000002 (0000ms, 0997ms total)
T1EE4 024:330 JLINK_ReadReg(R1)  returns 0x00000000 (0001ms, 0998ms total)
T1EE4 024:331 JLINK_ReadReg(R2)  returns 0x00000000 (0000ms, 0998ms total)
T1EE4 024:331 JLINK_ReadReg(R3)  returns 0xF0000011 (0000ms, 0998ms total)
T1EE4 024:331 JLINK_ReadReg(R4)  returns 0x00000000 (0000ms, 0998ms total)
T1EE4 024:331 JLINK_ReadReg(R5)  returns 0x20000140 (0000ms, 0998ms total)
T1EE4 024:332 JLINK_ReadReg(R6)  returns 0x00000000 (0000ms, 0998ms total)
T1EE4 024:332 JLINK_ReadReg(R7)  returns 0x00000000 (0000ms, 0998ms total)
T1EE4 024:332 JLINK_ReadReg(R8)  returns 0x00000000 (0000ms, 0998ms total)
T1EE4 024:332 JLINK_ReadReg(R9)  returns 0x00000000 (0000ms, 0998ms total)
T1EE4 024:332 JLINK_ReadReg(R10)  returns 0x08004EFC (0000ms, 0998ms total)
T1EE4 024:332 JLINK_ReadReg(R11)  returns 0x00000000 (0000ms, 0998ms total)
T1EE4 024:332 JLINK_ReadReg(R12)  returns 0x000000A8 (0000ms, 0998ms total)
T1EE4 024:332 JLINK_ReadReg(R13 (SP))  returns 0x200007A0 (0001ms, 0999ms total)
T1EE4 024:333 JLINK_ReadReg(R14)  returns 0x0800195D (0000ms, 0999ms total)
T1EE4 024:333 JLINK_ReadReg(R15 (PC))  returns 0x08003B18 (0000ms, 0999ms total)
T1EE4 024:333 JLINK_ReadReg(XPSR)  returns 0x21000000 (0001ms, 1000ms total)
T1EE4 024:334 JLINK_ReadReg(MSP)  returns 0x200007A0 (0000ms, 1000ms total)
T1EE4 024:334 JLINK_ReadReg(PSP)  returns 0x00000000 (0000ms, 1000ms total)
T1EE4 024:334 JLINK_ReadReg(CFBP)  returns 0x04000000 (0000ms, 1000ms total)
T1EE4 024:334 JLINK_ReadReg(FPSCR)  returns 0x03000000 (0000ms, 1000ms total)
T1EE4 024:334 JLINK_ReadReg(FPS0)  returns 0x00000000 (0000ms, 1000ms total)
T1EE4 024:334 JLINK_ReadReg(FPS1)  returns 0x00000000 (0000ms, 1000ms total)
T1EE4 024:334 JLINK_ReadReg(FPS2)  returns 0x00000000 (0000ms, 1000ms total)
T1EE4 024:334 JLINK_ReadReg(FPS3)  returns 0x00000000 (0000ms, 1000ms total)
T1EE4 024:334 JLINK_ReadReg(FPS4)  returns 0x00000000 (0001ms, 1001ms total)
T1EE4 024:335 JLINK_ReadReg(FPS5)  returns 0x00000000 (0000ms, 1001ms total)
T1EE4 024:335 JLINK_ReadReg(FPS6)  returns 0x00000000 (0000ms, 1001ms total)
T1EE4 024:335 JLINK_ReadReg(FPS7)  returns 0x00000000 (0000ms, 1001ms total)
T1EE4 024:335 JLINK_ReadReg(FPS8)  returns 0x00000000 (0001ms, 1002ms total)
T1EE4 024:336 JLINK_ReadReg(FPS9)  returns 0x00000000 (0000ms, 1002ms total)
T1EE4 024:336 JLINK_ReadReg(FPS10)  returns 0x00000000 (0000ms, 1002ms total)
T1EE4 024:336 JLINK_ReadReg(FPS11)  returns 0x00000000 (0000ms, 1002ms total)
T1EE4 024:337 JLINK_ReadReg(FPS12)  returns 0x00000000 (0000ms, 1002ms total)
T1EE4 024:337 JLINK_ReadReg(FPS13)  returns 0x00000000 (0000ms, 1002ms total)
T1EE4 024:337 JLINK_ReadReg(FPS14)  returns 0x00000000 (0000ms, 1002ms total)
T1EE4 024:337 JLINK_ReadReg(FPS15)  returns 0x00000000 (0001ms, 1003ms total)
T1EE4 024:338 JLINK_ReadReg(FPS16)  returns 0x00000000 (0000ms, 1003ms total)
T1EE4 024:338 JLINK_ReadReg(FPS17)  returns 0x00000000 (0000ms, 1003ms total)
T1EE4 024:338 JLINK_ReadReg(FPS18)  returns 0x00000000 (0000ms, 1003ms total)
T1EE4 024:338 JLINK_ReadReg(FPS19)  returns 0x00000000 (0000ms, 1003ms total)
T1EE4 024:338 JLINK_ReadReg(FPS20)  returns 0x00000000 (0000ms, 1003ms total)
T1EE4 024:339 JLINK_ReadReg(FPS21)  returns 0x00000000 (0000ms, 1004ms total)
T1EE4 024:339 JLINK_ReadReg(FPS22)  returns 0x00000000 (0000ms, 1004ms total)
T1EE4 024:339 JLINK_ReadReg(FPS23)  returns 0x00000000 (0000ms, 1004ms total)
T1EE4 024:339 JLINK_ReadReg(FPS24)  returns 0x00000000 (0000ms, 1004ms total)
T1EE4 024:339 JLINK_ReadReg(FPS25)  returns 0x00000000 (0001ms, 1005ms total)
T1EE4 024:340 JLINK_ReadReg(FPS26)  returns 0x00000000 (0000ms, 1005ms total)
T1EE4 024:340 JLINK_ReadReg(FPS27)  returns 0x00000000 (0000ms, 1005ms total)
T1EE4 024:340 JLINK_ReadReg(FPS28)  returns 0x00000000 (0000ms, 1005ms total)
T1EE4 024:340 JLINK_ReadReg(FPS29)  returns 0x00000000 (0000ms, 1005ms total)
T1EE4 024:340 JLINK_ReadReg(FPS30)  returns 0x00000000 (0001ms, 1006ms total)
T1EE4 024:341 JLINK_ReadReg(FPS31)  returns 0x00000000 (0000ms, 1006ms total)
T141C 024:343 JLINK_ReadMem (0x00000000, 0x0001 Bytes, ...) -- CPU_ReadMem(4 bytes @ 0x00000004) -- CPU_ReadMem(64 bytes @ 0x08000000) -- Updating C cache (64 bytes @ 0x08000000) -- Read from C cache (1 bytes @ 0x08000000) - Data: A0  returns 0x00 (0003ms, 1009ms total)
T141C 024:347 JLINK_ReadMem (0x00000000, 0x0004 Bytes, ...) -- Read from C cache (4 bytes @ 0x08000000) - Data: A0 07 00 20  returns 0x00 (0000ms, 1009ms total)
T141C 024:347 JLINK_ReadMem (0x00000000, 0x0008 Bytes, ...) -- Read from C cache (8 bytes @ 0x08000000) - Data: A0 07 00 20 29 02 00 08  returns 0x00 (0000ms, 1009ms total)
T141C 024:350 JLINK_ReadMem (0x20000120, 0x001E Bytes, ...) -- CPU_ReadMem(64 bytes @ 0x20000100) -- Updating C cache (64 bytes @ 0x20000100) -- Read from C cache (30 bytes @ 0x20000120) - Data: 00 00 00 00 00 00 00 00 00 00 00 00 00 00 00 00 ...  returns 0x00 (0002ms, 1011ms total)
T141C 024:375 JLINK_ReadMem (0x08003B18, 0x003C Bytes, ...) -- CPU_ReadMem(128 bytes @ 0x08003B00) -- Updating C cache (128 bytes @ 0x08003B00) -- Read from C cache (60 bytes @ 0x08003B18) - Data: 2D E9 F0 5F 2D ED 02 8B 06 46 4F F0 00 0B 00 21 ...  returns 0x00 (0003ms, 1014ms total)
T141C 026:348 JLINK_ReadMem (0x2000003F, 0x0001 Bytes, ...) -- CPU_ReadMem(64 bytes @ 0x20000000) -- Updating C cache (64 bytes @ 0x20000000) -- Read from C cache (1 bytes @ 0x2000003F) - Data: 00  returns 0x00 (0002ms, 1016ms total)
T141C 030:770 JLINK_ReadMem (0x08003B7E, 0x0002 Bytes, ...) -- Read from C cache (2 bytes @ 0x08003B7E) - Data: 00 BF  returns 0x00 (0001ms, 1017ms total)
T141C 030:772 JLINK_ReadMem (0x08003B80, 0x003C Bytes, ...) -- CPU_ReadMem(64 bytes @ 0x08003B80) -- Updating C cache (64 bytes @ 0x08003B80) -- Read from C cache (60 bytes @ 0x08003B80) - Data: 00 21 0F 20 FE F7 B4 F9 EF 49 08 60 EF 49 08 40 ...  returns 0x00 (0001ms, 1018ms total)
T141C 036:534 JLINK_ReadMem (0x08003DA0, 0x003C Bytes, ...) -- CPU_ReadMem(128 bytes @ 0x08003D80) -- Updating C cache (128 bytes @ 0x08003D80) -- Read from C cache (60 bytes @ 0x08003DA0) - Data: 58 46 BD EC 02 8B BD E8 F0 9F 2D E9 F0 5F 2D ED ...  returns 0x00 (0002ms, 1020ms total)
T141C 041:006 JLINK_ReadMem (0x20000064, 0x0004 Bytes, ...) -- CPU_ReadMem(64 bytes @ 0x20000040) -- Updating C cache (64 bytes @ 0x20000040) -- Read from C cache (4 bytes @ 0x20000064) - Data: 00 00 00 00  returns 0x00 (0002ms, 1022ms total)
T1EE4 048:061 JLINK_ReadMemU32(0xE0001004, 0x0001 Items, ...) - Data: FF 03 00 00  returns 0x01 (0000ms, 1022ms total)
T1EE4 048:061 JLINK_WriteU32(0xE0001004, 0x000003FF)  returns 0x00 (0001ms, 1023ms total)
T1EE4 048:062 JLINK_WriteU32(0xE0001000, 0x00410A1F)  returns 0x00 (0000ms, 1023ms total)
T1EE4 048:062 JLINK_WriteU32(0xE0000E80, 0x0001000F)  returns 0x00 (0000ms, 1023ms total)
T1EE4 048:062 JLINK_SWO_Control(JLINKARM_SWO_CMD_GET_NUM_BYTES, ...)  returns 0x00 (0000ms, 1023ms total)
T1EE4 048:062 JLINK_Step() -- Read from C cache (2 bytes @ 0x08003B18) -- Read from C cache (2 bytes @ 0x08003B1A) -- Not simulated -- CPU_WriteMem(4 bytes @ 0xE0000E80) -- CPU_WriteMem(4 bytes @ 0xE0001000) -- CPU_WriteMem(4 bytes @ 0xE0002008) -- CPU_WriteMem(4 bytes @ 0xE0001004)  returns 0x00 (0009ms, 1032ms total)
T1EE4 048:072 JLINK_ReadReg(R15 (PC))  returns 0x08003B1C (0000ms, 1032ms total)
T1EE4 048:072 JLINK_ReadReg(XPSR)  returns 0x21000000 (0000ms, 1032ms total)
T1EE4 048:072 JLINK_ReadMemU32(0xE0001004, 0x0001 Items, ...) -- CPU_ReadMem(4 bytes @ 0xE0001004) - Data: 0C 04 00 00  returns 0x01 (0001ms, 1033ms total)
T1EE4 048:073 JLINK_WriteU32(0xE0001004, 0x000003FF) -- CPU_WriteMem(4 bytes @ 0xE0001004)  returns 0x00 (0001ms, 1034ms total)
T1EE4 048:075 JLINK_WriteU32(0xE0001000, 0x00410A1F)  returns 0x00 (0000ms, 1034ms total)
T1EE4 048:075 JLINK_WriteU32(0xE0000E80, 0x0001000F)  returns 0x00 (0000ms, 1034ms total)
T1EE4 048:075 JLINK_SWO_Control(JLINKARM_SWO_CMD_GET_NUM_BYTES, ...)  returns 0x00 (0000ms, 1034ms total)
T1EE4 048:075 JLINK_Step() -- CPU_ReadMem(64 bytes @ 0x08003B00) -- Updating C cache (64 bytes @ 0x08003B00) -- Read from C cache (2 bytes @ 0x08003B1C) -- Read from C cache (2 bytes @ 0x08003B1E) -- Not simulated -- CPU_WriteMem(4 bytes @ 0xE0000E80) -- CPU_WriteMem(4 bytes @ 0xE0001000)  returns 0x00 (0009ms, 1043ms total)
T1EE4 048:084 JLINK_ReadReg(R15 (PC))  returns 0x08003B20 (0000ms, 1043ms total)
T1EE4 048:084 JLINK_ReadReg(XPSR)  returns 0x21000000 (0000ms, 1043ms total)
T1EE4 048:084 JLINK_ReadMemU32(0xE0001004, 0x0001 Items, ...) -- CPU_ReadMem(4 bytes @ 0xE0001004) - Data: 02 04 00 00  returns 0x01 (0001ms, 1044ms total)
T1EE4 048:086 JLINK_WriteU32(0xE0001004, 0x000003FF) -- CPU_WriteMem(4 bytes @ 0xE0001004)  returns 0x00 (0001ms, 1045ms total)
T1EE4 048:087 JLINK_WriteU32(0xE0001000, 0x00410A1F)  returns 0x00 (0000ms, 1045ms total)
T1EE4 048:088 JLINK_WriteU32(0xE0000E80, 0x0001000F)  returns 0x00 (0000ms, 1046ms total)
T1EE4 048:088 JLINK_SWO_Control(JLINKARM_SWO_CMD_GET_NUM_BYTES, ...)  returns 0x00 (0000ms, 1046ms total)
T1EE4 048:088 JLINK_Step() -- CPU_ReadMem(64 bytes @ 0x08003B00) -- Updating C cache (64 bytes @ 0x08003B00) -- Read from C cache (2 bytes @ 0x08003B20) -- Simulated  returns 0x00 (0001ms, 1047ms total)
T1EE4 048:090 JLINK_ReadReg(R15 (PC))  returns 0x08003B22 (0000ms, 1047ms total)
T1EE4 048:090 JLINK_ReadReg(XPSR)  returns 0x21000000 (0000ms, 1047ms total)
T1EE4 048:090 JLINK_ReadReg(R0)  returns 0x00000002 (0001ms, 1048ms total)
T1EE4 048:091 JLINK_ReadReg(R1)  returns 0x00000000 (0000ms, 1048ms total)
T1EE4 048:091 JLINK_ReadReg(R2)  returns 0x00000000 (0000ms, 1048ms total)
T1EE4 048:091 JLINK_ReadReg(R3)  returns 0xF0000011 (0000ms, 1048ms total)
T1EE4 048:091 JLINK_ReadReg(R4)  returns 0x00000000 (0000ms, 1048ms total)
T1EE4 048:092 JLINK_ReadReg(R5)  returns 0x20000140 (0000ms, 1048ms total)
T1EE4 048:092 JLINK_ReadReg(R6)  returns 0x00000002 (0000ms, 1048ms total)
T1EE4 048:092 JLINK_ReadReg(R7)  returns 0x00000000 (0000ms, 1048ms total)
T1EE4 048:092 JLINK_ReadReg(R8)  returns 0x00000000 (0001ms, 1049ms total)
T1EE4 048:093 JLINK_ReadReg(R9)  returns 0x00000000 (0000ms, 1049ms total)
T1EE4 048:094 JLINK_ReadReg(R10)  returns 0x08004EFC (0000ms, 1049ms total)
T1EE4 048:094 JLINK_ReadReg(R11)  returns 0x00000000 (0000ms, 1049ms total)
T1EE4 048:094 JLINK_ReadReg(R12)  returns 0x000000A8 (0000ms, 1049ms total)
T1EE4 048:094 JLINK_ReadReg(R13 (SP))  returns 0x20000770 (0000ms, 1049ms total)
T1EE4 048:094 JLINK_ReadReg(R14)  returns 0x0800195D (0000ms, 1049ms total)
T1EE4 048:094 JLINK_ReadReg(R15 (PC))  returns 0x08003B22 (0000ms, 1049ms total)
T1EE4 048:094 JLINK_ReadReg(XPSR)  returns 0x21000000 (0000ms, 1049ms total)
T1EE4 048:094 JLINK_ReadReg(MSP)  returns 0x20000770 (0000ms, 1049ms total)
T1EE4 048:094 JLINK_ReadReg(PSP)  returns 0x00000000 (0000ms, 1049ms total)
T1EE4 048:094 JLINK_ReadReg(CFBP)  returns 0x04000000 (0000ms, 1049ms total)
T1EE4 048:094 JLINK_ReadReg(FPSCR)  returns 0x03000000 (0006ms, 1055ms total)
T1EE4 048:100 JLINK_ReadReg(FPS0)  returns 0x00000000 (0001ms, 1056ms total)
T1EE4 048:101 JLINK_ReadReg(FPS1)  returns 0x00000000 (0000ms, 1056ms total)
T1EE4 048:101 JLINK_ReadReg(FPS2)  returns 0x00000000 (0000ms, 1056ms total)
T1EE4 048:101 JLINK_ReadReg(FPS3)  returns 0x00000000 (0000ms, 1056ms total)
T1EE4 048:101 JLINK_ReadReg(FPS4)  returns 0x00000000 (0000ms, 1056ms total)
T1EE4 048:101 JLINK_ReadReg(FPS5)  returns 0x00000000 (0001ms, 1057ms total)
T1EE4 048:102 JLINK_ReadReg(FPS6)  returns 0x00000000 (0000ms, 1057ms total)
T1EE4 048:102 JLINK_ReadReg(FPS7)  returns 0x00000000 (0000ms, 1057ms total)
T1EE4 048:102 JLINK_ReadReg(FPS8)  returns 0x00000000 (0000ms, 1057ms total)
T1EE4 048:102 JLINK_ReadReg(FPS9)  returns 0x00000000 (0000ms, 1057ms total)
T1EE4 048:102 JLINK_ReadReg(FPS10)  returns 0x00000000 (0001ms, 1058ms total)
T1EE4 048:103 JLINK_ReadReg(FPS11)  returns 0x00000000 (0000ms, 1058ms total)
T1EE4 048:103 JLINK_ReadReg(FPS12)  returns 0x00000000 (0000ms, 1058ms total)
T1EE4 048:103 JLINK_ReadReg(FPS13)  returns 0x00000000 (0000ms, 1058ms total)
T1EE4 048:103 JLINK_ReadReg(FPS14)  returns 0x00000000 (0000ms, 1058ms total)
T1EE4 048:103 JLINK_ReadReg(FPS15)  returns 0x00000000 (0000ms, 1058ms total)
T1EE4 048:103 JLINK_ReadReg(FPS16)  returns 0x00000000 (0001ms, 1059ms total)
T1EE4 048:104 JLINK_ReadReg(FPS17)  returns 0x00000000 (0000ms, 1059ms total)
T1EE4 048:105 JLINK_ReadReg(FPS18)  returns 0x00000000 (0000ms, 1059ms total)
T1EE4 048:105 JLINK_ReadReg(FPS19)  returns 0x00000000 (0000ms, 1059ms total)
T1EE4 048:105 JLINK_ReadReg(FPS20)  returns 0x00000000 (0000ms, 1059ms total)
T1EE4 048:105 JLINK_ReadReg(FPS21)  returns 0x00000000 (0000ms, 1059ms total)
T1EE4 048:105 JLINK_ReadReg(FPS22)  returns 0x00000000 (0000ms, 1059ms total)
T1EE4 048:105 JLINK_ReadReg(FPS23)  returns 0x00000000 (0000ms, 1059ms total)
T1EE4 048:105 JLINK_ReadReg(FPS24)  returns 0x00000000 (0000ms, 1059ms total)
T1EE4 048:105 JLINK_ReadReg(FPS25)  returns 0x00000000 (0000ms, 1059ms total)
T1EE4 048:105 JLINK_ReadReg(FPS26)  returns 0x00000000 (0000ms, 1059ms total)
T1EE4 048:105 JLINK_ReadReg(FPS27)  returns 0x00000000 (0000ms, 1059ms total)
T1EE4 048:105 JLINK_ReadReg(FPS28)  returns 0x00000000 (0000ms, 1059ms total)
T1EE4 048:105 JLINK_ReadReg(FPS29)  returns 0x00000000 (0001ms, 1060ms total)
T1EE4 048:106 JLINK_ReadReg(FPS30)  returns 0x00000000 (0000ms, 1060ms total)
T1EE4 048:106 JLINK_ReadReg(FPS31)  returns 0x00000000 (0000ms, 1060ms total)
T141C 048:107 JLINK_ReadMem (0x2000079C, 0x0004 Bytes, ...) -- CPU_ReadMem(64 bytes @ 0x20000780) -- Updating C cache (64 bytes @ 0x20000780) -- Read from C cache (4 bytes @ 0x2000079C) - Data: 5D 19 00 08  returns 0x00 (0001ms, 1061ms total)
T141C 048:109 JLINK_ReadMem (0x20000778, 0x0004 Bytes, ...) -- CPU_ReadMem(64 bytes @ 0x20000740) -- Updating C cache (64 bytes @ 0x20000740) -- Read from C cache (4 bytes @ 0x20000778) - Data: 00 00 00 00  returns 0x00 (0002ms, 1063ms total)
T141C 048:112 JLINK_ReadMem (0x2000077C, 0x0004 Bytes, ...) -- Read from C cache (4 bytes @ 0x2000077C) - Data: 40 01 00 20  returns 0x00 (0000ms, 1063ms total)
T141C 048:112 JLINK_ReadMem (0x20000780, 0x0004 Bytes, ...) -- Read from C cache (4 bytes @ 0x20000780) - Data: 00 00 00 00  returns 0x00 (0000ms, 1063ms total)
T141C 048:112 JLINK_ReadMem (0x20000784, 0x0004 Bytes, ...) -- Read from C cache (4 bytes @ 0x20000784) - Data: 00 00 00 00  returns 0x00 (0000ms, 1063ms total)
T141C 048:112 JLINK_ReadMem (0x20000788, 0x0004 Bytes, ...) -- Read from C cache (4 bytes @ 0x20000788) - Data: 00 00 00 00  returns 0x00 (0000ms, 1063ms total)
T141C 048:112 JLINK_ReadMem (0x2000078C, 0x0004 Bytes, ...) -- Read from C cache (4 bytes @ 0x2000078C) - Data: 00 00 00 00  returns 0x00 (0001ms, 1064ms total)
T141C 048:113 JLINK_ReadMem (0x20000790, 0x0004 Bytes, ...) -- Read from C cache (4 bytes @ 0x20000790) - Data: FC 4E 00 08  returns 0x00 (0000ms, 1064ms total)
T141C 048:113 JLINK_ReadMem (0x20000794, 0x0004 Bytes, ...) -- Read from C cache (4 bytes @ 0x20000794) - Data: 00 00 00 00  returns 0x00 (0000ms, 1064ms total)
T141C 048:113 JLINK_ReadMem (0x00000000, 0x0001 Bytes, ...) -- CPU_ReadMem(4 bytes @ 0x00000004) -- CPU_ReadMem(64 bytes @ 0x08000000) -- Updating C cache (64 bytes @ 0x08000000) -- Read from C cache (1 bytes @ 0x08000000) - Data: A0  returns 0x00 (0002ms, 1066ms total)
T141C 048:116 JLINK_ReadMem (0x00000000, 0x0004 Bytes, ...) -- Read from C cache (4 bytes @ 0x08000000) - Data: A0 07 00 20  returns 0x00 (0000ms, 1066ms total)
T141C 048:116 JLINK_ReadMem (0x00000000, 0x0008 Bytes, ...) -- Read from C cache (8 bytes @ 0x08000000) - Data: A0 07 00 20 29 02 00 08  returns 0x00 (0000ms, 1066ms total)
T141C 048:123 JLINK_ReadMem (0x20000120, 0x001E Bytes, ...) -- CPU_ReadMem(64 bytes @ 0x20000100) -- Updating C cache (64 bytes @ 0x20000100) -- Read from C cache (30 bytes @ 0x20000120) - Data: 00 00 00 00 00 00 00 00 00 00 00 00 00 00 00 00 ...  returns 0x00 (0002ms, 1068ms total)
T141C 048:125 JLINK_ReadMem (0x20000064, 0x0004 Bytes, ...) -- CPU_ReadMem(64 bytes @ 0x20000040) -- Updating C cache (64 bytes @ 0x20000040) -- Read from C cache (4 bytes @ 0x20000064) - Data: 00 00 00 00  returns 0x00 (0002ms, 1070ms total)
T141C 048:140 JLINK_ReadMem (0x08003B22, 0x0002 Bytes, ...) -- Read from C cache (2 bytes @ 0x08003B22) - Data: 4F F0  returns 0x00 (0000ms, 1070ms total)
T141C 048:140 JLINK_ReadMem (0x08003B24, 0x003C Bytes, ...) -- CPU_ReadMem(64 bytes @ 0x08003B40) -- Updating C cache (64 bytes @ 0x08003B40) -- Read from C cache (60 bytes @ 0x08003B24) - Data: 00 0B 00 21 80 20 FE F7 DB FB 01 21 10 20 FE F7 ...  returns 0x00 (0002ms, 1072ms total)
T1EE4 048:589 JLINK_ReadMemU32(0xE0001004, 0x0001 Items, ...) - Data: FF 03 00 00  returns 0x01 (0000ms, 1072ms total)
T1EE4 048:589 JLINK_WriteU32(0xE0001004, 0x000003FF)  returns 0x00 (0001ms, 1073ms total)
T1EE4 048:590 JLINK_WriteU32(0xE0001000, 0x00410A1F)  returns 0x00 (0000ms, 1073ms total)
T1EE4 048:590 JLINK_WriteU32(0xE0000E80, 0x0001000F)  returns 0x00 (0000ms, 1073ms total)
T1EE4 048:590 JLINK_SWO_Control(JLINKARM_SWO_CMD_GET_NUM_BYTES, ...)  returns 0x00 (0000ms, 1073ms total)
T1EE4 048:590 JLINK_Step() -- Read from C cache (2 bytes @ 0x08003B22) -- Read from C cache (2 bytes @ 0x08003B24) -- Simulated  returns 0x00 (0001ms, 1074ms total)
T1EE4 048:591 JLINK_ReadReg(R15 (PC))  returns 0x08003B26 (0001ms, 1075ms total)
T1EE4 048:592 JLINK_ReadReg(XPSR)  returns 0x21000000 (0000ms, 1075ms total)
T1EE4 048:592 JLINK_ReadReg(R0)  returns 0x00000002 (0000ms, 1075ms total)
T1EE4 048:592 JLINK_ReadReg(R1)  returns 0x00000000 (0000ms, 1075ms total)
T1EE4 048:592 JLINK_ReadReg(R2)  returns 0x00000000 (0000ms, 1075ms total)
T1EE4 048:592 JLINK_ReadReg(R3)  returns 0xF0000011 (0000ms, 1075ms total)
T1EE4 048:592 JLINK_ReadReg(R4)  returns 0x00000000 (0001ms, 1076ms total)
T1EE4 048:593 JLINK_ReadReg(R5)  returns 0x20000140 (0000ms, 1076ms total)
T1EE4 048:593 JLINK_ReadReg(R6)  returns 0x00000002 (0000ms, 1076ms total)
T1EE4 048:593 JLINK_ReadReg(R7)  returns 0x00000000 (0000ms, 1076ms total)
T1EE4 048:593 JLINK_ReadReg(R8)  returns 0x00000000 (0001ms, 1077ms total)
T1EE4 048:594 JLINK_ReadReg(R9)  returns 0x00000000 (0000ms, 1077ms total)
T1EE4 048:594 JLINK_ReadReg(R10)  returns 0x08004EFC (0000ms, 1077ms total)
T1EE4 048:594 JLINK_ReadReg(R11)  returns 0x00000000 (0000ms, 1077ms total)
T1EE4 048:594 JLINK_ReadReg(R12)  returns 0x000000A8 (0000ms, 1077ms total)
T1EE4 048:594 JLINK_ReadReg(R13 (SP))  returns 0x20000770 (0000ms, 1077ms total)
